Circuit: * C:\Users\monka\Desktop\Projects\linear_psu\psu01_spiDAC_spiADC\LTSpice\2wire4wire_LED.asc

Direct Newton iteration for .op point succeeded.
Semiconductor Device Operating Points:
                        --- Diodes ---
Name:      d3          d2          d1
Model:   1n4148     nspw500bs   nspw500bs
Id:     -1.98e-09    8.54e-03    1.32e-10
Vd:     -6.99e-02    3.08e+00    6.99e-02
Req:     8.41e+07    2.06e+01    4.37e+08
CAP:     3.89e-12    2.10e-10    4.36e-11

                        --- Bipolar Transistors ---
Name:       q3          q2          q1
Model:    bc557c      bc547c      bc547c
Ib:      -2.13e-11    4.24e-04   -4.96e-12
Ic:      -6.51e-09    8.54e-03    5.01e-12
Vbe:     -3.00e-01    6.93e-01    4.69e-05
Vbc:      4.70e+00    6.53e-01   -4.93e+00
Vce:     -5.00e+00    3.98e-02    4.93e+00
BetaDC:   3.06e+02    2.02e+01   -1.01e+00
Gm:       2.48e-07    3.10e-01    1.96e-12
Rpi:      1.21e+09    8.69e+02    9.36e+11
Rx:       1.00e+00    1.00e+00    1.00e+00
Ro:       4.54e+09    7.73e+00    1.12e+15
Cbe:      2.01e-11    2.66e-10    1.23e-11
Cbc:      1.80e-12    1.87e-11    1.11e-12
Cjs:      0.00e+00    0.00e+00    0.00e+00
BetaAC:   3.00e+02    2.70e+02    1.84e+00
Cbx:      1.06e-12    1.15e-11    6.82e-13
Ft:       1.72e+03    1.67e+08    1.86e-02



Date: Sun Feb 09 10:50:42 2020
Total elapsed time: 0.052 seconds.

tnom = 27
temp = 27
method = trap
totiter = 19
traniter = 0
tranpoints = 0
accept = 0
rejected = 0
matrix size = 24
fillins = 4
solver = Normal
Matrix Compiler1: 1.75 KB object code size
Matrix Compiler2: 2.08 KB object code size
