Circuit: * D:\Projects\psu01_spiDAC_spiADC\LTSpice\PSU_current_sense_low_side_concept_design\PSU1.17_LowSide_CurrentLimit_optoUIreg.asc

Instance "m:u3:6": Length shorter than recommended for a level 2 MOSFET.
Instance "m:u3:5": Length shorter than recommended for a level 2 MOSFET.
Instance "m:u3:4": Length shorter than recommended for a level 2 MOSFET.
Instance "m:u3:3": Length shorter than recommended for a level 2 MOSFET.
Instance "m:u3:2": Length shorter than recommended for a level 2 MOSFET.
Instance "m:u3:1": Length shorter than recommended for a level 2 MOSFET.
Instance "m:u8:6": Length shorter than recommended for a level 2 MOSFET.
Instance "m:u8:5": Length shorter than recommended for a level 2 MOSFET.
Instance "m:u8:4": Length shorter than recommended for a level 2 MOSFET.
Instance "m:u8:3": Length shorter than recommended for a level 2 MOSFET.
Instance "m:u8:2": Length shorter than recommended for a level 2 MOSFET.
Instance "m:u8:1": Length shorter than recommended for a level 2 MOSFET.
Instance "m:u7:6": Length shorter than recommended for a level 2 MOSFET.
Instance "m:u7:5": Length shorter than recommended for a level 2 MOSFET.
Instance "m:u7:4": Length shorter than recommended for a level 2 MOSFET.
Instance "m:u7:3": Length shorter than recommended for a level 2 MOSFET.
Instance "m:u7:2": Length shorter than recommended for a level 2 MOSFET.
Instance "m:u7:1": Length shorter than recommended for a level 2 MOSFET.
Instance "m:u6:6": Length shorter than recommended for a level 2 MOSFET.
Instance "m:u6:5": Length shorter than recommended for a level 2 MOSFET.
Instance "m:u6:4": Length shorter than recommended for a level 2 MOSFET.
Instance "m:u6:3": Length shorter than recommended for a level 2 MOSFET.
Instance "m:u6:2": Length shorter than recommended for a level 2 MOSFET.
Instance "m:u6:1": Length shorter than recommended for a level 2 MOSFET.
Instance "m:u5:6": Length shorter than recommended for a level 2 MOSFET.
Instance "m:u5:5": Length shorter than recommended for a level 2 MOSFET.
Instance "m:u5:4": Length shorter than recommended for a level 2 MOSFET.
Instance "m:u5:3": Length shorter than recommended for a level 2 MOSFET.
Instance "m:u5:2": Length shorter than recommended for a level 2 MOSFET.
Instance "m:u5:1": Length shorter than recommended for a level 2 MOSFET.
Instance "m:u4:6": Length shorter than recommended for a level 2 MOSFET.
Instance "m:u4:5": Length shorter than recommended for a level 2 MOSFET.
Instance "m:u4:4": Length shorter than recommended for a level 2 MOSFET.
Instance "m:u4:3": Length shorter than recommended for a level 2 MOSFET.
Instance "m:u4:2": Length shorter than recommended for a level 2 MOSFET.
Instance "m:u4:1": Length shorter than recommended for a level 2 MOSFET.
Instance "m:u2:6": Length shorter than recommended for a level 2 MOSFET.
Instance "m:u2:5": Length shorter than recommended for a level 2 MOSFET.
Instance "m:u2:4": Length shorter than recommended for a level 2 MOSFET.
Instance "m:u2:3": Length shorter than recommended for a level 2 MOSFET.
Instance "m:u2:2": Length shorter than recommended for a level 2 MOSFET.
Instance "m:u2:1": Length shorter than recommended for a level 2 MOSFET.
Instance "m:u1:6": Length shorter than recommended for a level 2 MOSFET.
Instance "m:u1:5": Length shorter than recommended for a level 2 MOSFET.
Instance "m:u1:4": Length shorter than recommended for a level 2 MOSFET.
Instance "m:u1:3": Length shorter than recommended for a level 2 MOSFET.
Instance "m:u1:2": Length shorter than recommended for a level 2 MOSFET.
Instance "m:u1:1": Length shorter than recommended for a level 2 MOSFET.
Direct Newton iteration failed to find .op point.  (Use ".option noopiter" to skip.)
Starting Gmin stepping
Gmin = 10
Gmin = 1.07374
Gmin = 0.115292
Gmin = 0.0123794
Gmin = 0.00132923
vernier = 0.5
vernier = 0.25
vernier = 0.125
vernier = 0.0625
Gmin = 0.00100083
vernier = 0.03125
vernier = 0.015625
vernier = 0.0078125
vernier = 0.00390625
vernier = 0.00195313
Gmin = 0.00100083
vernier = 0.000976563
vernier = 0.000488281
Gmin = 0
Gmin stepping failed

Starting source stepping with srcstepmethod=0
Source Step = 3.0303%
Source Step = 28.0303%
vernier = 0.0625
Source Step = 27.2934%
Source Step = 27.323%
Source Step = 27.3526%
Source Step = 27.3822%
Source Step = 27.4118%
vernier = 0.00146484
Source Step = 27.4458%
Source Step = 27.4902%
Source Step = 27.5346%
Source Step = 27.579%
Source Step = 27.6234%
vernier = 0.00219727
Source Step = 27.6722%
Source Step = 27.7388%
Source Step = 27.8054%
Source Step = 27.872%
Source Step = 27.9386%
vernier = 0.0032959
Source Step = 28.0085%
Source Step = 28.1084%
Source Step = 28.2082%
Source Step = 28.3081%
Source Step = 28.408%
Source Step = 28.5079%
vernier = 0.00494385
Source Step = 28.6577%
Source Step = 28.8075%
Source Step = 28.9573%
Source Step = 29.1071%
Source Step = 29.2569%
vernier = 0.00741577
Source Step = 29.4742%
Source Step = 29.6989%
Source Step = 29.9236%
Source Step = 30.1483%
Source Step = 30.373%
vernier = 0.0111237
Source Step = 30.6876%
Source Step = 31.0247%
Source Step = 31.3618%
Source Step = 31.6989%
Source Step = 32.036%
vernier = 0.0166855
Source Step = 32.491%
Source Step = 32.9966%
Source Step = 33.5023%
Source Step = 34.0079%
Source Step = 34.5135%
vernier = 0.0250282
Source Step = 35.1708%
Source Step = 35.9292%
Source Step = 36.6877%
Source Step = 37.4461%
Source Step = 38.2045%
vernier = 0.0375423
Source Step = 39.1526%
Source Step = 40.2902%
Source Step = 41.4279%
Source Step = 42.5655%
Source Step = 43.7032%
vernier = 0.0563135
Source Step = 45.0683%
Source Step = 46.7748%
Source Step = 48.4813%
Source Step = 50.1878%
Source Step = 51.8942%
vernier = 0.0844703
Source Step = 53.8567%
Source Step = 56.4164%
Source Step = 58.9761%
Source Step = 61.5358%
Source Step = 64.0955%
vernier = 0.126705
Source Step = 66.9112%
Source Step = 70.7507%
Source Step = 74.5903%
Source Step = 78.4298%
Source Step = 82.2694%
vernier = 0.190058
Source Step = 86.3009%
Source Step = 92.0603%
Source Step = 92.6902%
Source Step = 92.7802%
Source Step = 92.8702%
Source Step = 92.9602%
Source Step = 93.0501%
vernier = 0.00445449
Source Step = 93.1626%
Source Step = 93.2976%
Source Step = 93.4326%
Source Step = 93.5676%
Source Step = 93.7026%
vernier = 0.00668173
Source Step = 93.8646%
Source Step = 94.067%
Source Step = 94.2695%
Source Step = 94.472%
Source Step = 94.6745%
vernier = 0.0100226
Source Step = 94.9073%
Source Step = 95.211%
Source Step = 95.5147%
Source Step = 95.8185%
Source Step = 96.1222%
vernier = 0.0150339
Source Step = 96.4563%
Source Step = 96.9118%
Source Step = 97.3674%
Source Step = 97.823%
Source Step = 98.2785%
vernier = 0.0225508
Source Step = 98.7569%
Source Step = 99.4403%
Source stepping succeeded in finding the operating point.

Semiconductor Device Operating Points:
                        --- Diodes ---
Name:    d:u10:1       d3          d2        d:u9:1      d:u3:4
Model:   u10:ld      nscw100     nscw100      u9:ld       u3:dx
Id:      7.42e-12    7.11e-03    1.57e-11    8.50e-03   -2.52e-12
Vd:      5.26e-01    3.28e+00    2.31e-04    1.07e+00   -2.51e+00
Req:     3.74e+09    3.50e+01    1.47e+07    3.04e+00    1.00e+12
CAP:     2.61e-11    2.21e-10    4.20e-11    3.99e-11    0.00e+00

Name:    d:u3:3      d:u3:2      d:u3:1      d:u8:4      d:u8:3
Model:    u3:dx       u3:dx       u3:dx       u8:dx       u8:dx
Id:     -2.50e-12    1.00e-04   -3.13e-12   -2.50e-12   -2.52e-12
Vd:     -2.49e+00    5.96e-01   -3.12e+00   -2.49e+00   -2.51e+00
Req:     1.00e+12    2.59e+02    1.00e+12    1.00e+12    1.00e+12
CAP:     0.00e+00    0.00e+00    0.00e+00    0.00e+00    0.00e+00

Name:    d:u8:2      d:u8:1      d:u7:4      d:u7:3      d:u7:2
Model:    u8:dx       u8:dx       u7:dx       u7:dx       u7:dx
Id:      1.00e-04   -3.13e-12   -2.50e-12   -2.52e-12   -1.36e-13
Vd:      5.96e-01   -3.12e+00   -2.49e+00   -2.51e+00   -1.26e-01
Req:     2.59e+02    1.00e+12    1.00e+12    1.00e+12    9.97e+11
CAP:     0.00e+00    0.00e+00    0.00e+00    0.00e+00    0.00e+00

Name:    d:u7:1      d:u6:4      d:u6:3      d:u6:2      d:u6:1
Model:    u7:dx       u6:dx       u6:dx       u6:dx       u6:dx
Id:     -2.14e-12   -2.51e-12   -2.51e-12    1.90e-08   -2.63e-12
Vd:     -2.13e+00   -2.50e+00   -2.50e+00    3.74e-01   -2.62e+00
Req:     1.00e+12    1.00e+12    1.00e+12    1.36e+06    1.00e+12
CAP:     0.00e+00    0.00e+00    0.00e+00    0.00e+00    0.00e+00

Name:    d:u5:4      d:u5:3      d:u5:2      d:u5:1      d:u4:4
Model:    u5:dx       u5:dx       u5:dx       u5:dx       u4:dx
Id:     -2.51e-12   -2.51e-12    7.35e-05   -2.88e-12   -5.56e-12
Vd:     -2.50e+00   -2.50e+00    5.88e-01   -2.87e+00   -5.55e+00
Req:     1.00e+12    1.00e+12    3.52e+02    1.00e+12    1.00e+12
CAP:     0.00e+00    0.00e+00    0.00e+00    0.00e+00    0.00e+00

Name:    d:u4:3      d:u4:2      d:u4:1        d5          d1
Model:    u4:dx       u4:dx       u4:dx         d           d
Id:      1.49e-05    1.31e-09   -2.60e-12    5.11e-03    7.71e-13
Vd:      5.46e-01    3.05e-01   -2.59e+00    6.97e-01    1.09e-01
Req:     1.73e+03    1.98e+07    1.00e+12    5.06e+00    3.71e+10
CAP:     0.00e+00    0.00e+00    0.00e+00    0.00e+00    0.00e+00

Name:    d:u2:4      d:u2:3      d:u2:2      d:u2:1      d:u1:4
Model:    u2:dx       u2:dx       u2:dx       u2:dx       u1:dx
Id:     -2.51e-12   -2.51e-12    3.99e-10   -2.53e-12    1.44e-05
Vd:     -2.50e+00   -2.50e+00    2.74e-01   -2.52e+00    5.45e-01
Req:     1.00e+12    1.00e+12    6.49e+07    1.00e+12    1.80e+03
CAP:     0.00e+00    0.00e+00    0.00e+00    0.00e+00    0.00e+00

Name:    d:u1:3      d:u1:2      d:u1:1
Model:    u1:dx       u1:dx       u1:dx
Id:     -5.56e-12    1.92e-09   -2.60e-12
Vd:     -5.55e+00    3.15e-01   -2.59e+00
Req:     1.00e+12    1.35e+07    1.00e+12
CAP:     0.00e+00    0.00e+00    0.00e+00

                        --- Bipolar Transistors ---
Name:     q:u10:1     q:u9:1        q8          q7          q9
Model:    u10:np       u9:np      bc557c      bc557c      bc547c
Ib:       3.40e-14    3.91e-05   -1.98e-05   -2.00e-05    1.64e-05
Ic:       1.57e-11    7.07e-03   -8.61e-03   -8.17e-03    8.21e-03
Vbe:      2.83e-01    8.27e-01   -6.80e-01   -6.80e-01    6.76e-01
Vbc:     -4.72e+00    6.74e-01    1.47e+00    0.00e+00   -7.90e+00
Vce:      5.00e+00    1.53e-01   -2.15e+00   -6.80e-01    8.57e+00
BetaDC:   4.61e+02    1.81e+02    4.34e+02    4.08e+02    4.99e+02
Gm:       2.29e-10    2.57e-01    2.98e-01    2.82e-01    2.99e-01
Rpi:      8.60e+09    2.59e+03    1.33e+03    1.31e+03    1.59e+03
Rx:       0.00e+00    0.00e+00    1.00e+00    1.00e+00    1.00e+00
Ro:       2.44e+13    9.71e+02    2.89e+03    2.87e+03    7.36e+03
Cbe:      8.19e-12    1.23e-11    1.94e-10    1.87e-10    1.76e-10
Cbc:      9.86e-12    3.03e-11    2.77e-12    4.92e-12    9.77e-13
Cjs:      7.00e-12    7.00e-12    0.00e+00    0.00e+00    0.00e+00
BetaAC:   1.97e+00    6.65e+02    3.95e+02    3.71e+02    4.76e+02
Cbx:      0.00e+00    0.00e+00    1.64e-12    2.91e-12    6.01e-13
Ft:       1.74e+00    9.61e+08    2.39e+08    2.31e+08    2.68e+08

Name:       q5          q6          q3          q4          q2
Model:    bc547c      bc547c      2n3055      2n3055      2n3055
Ib:      -7.35e-12    1.76e-05    5.94e-03    5.94e-03    5.94e-03
Ic:       7.40e-12    8.50e-03    3.27e-01    3.27e-01    3.27e-01
Vbe:      7.38e-08    6.78e-01    4.38e-01    4.38e-01    4.38e-01
Vbc:     -7.32e+00   -6.09e+00   -2.88e+00   -2.88e+00   -2.88e+00
Vce:      7.32e+00    6.76e+00    3.31e+00    3.31e+00    3.31e+00
BetaDC:  -1.01e+00    4.83e+02    5.50e+01    5.50e+01    5.50e+01
Gm:       2.04e-12    3.09e-01    1.01e+01    1.01e+01    1.01e+01
Rpi:      9.36e+11    1.49e+03    4.36e+00    4.36e+00    4.36e+00
Rx:       1.00e+00    1.00e+00    8.10e-01    8.10e-01    8.10e-01
Ro:       1.13e+15    6.90e+03    1.16e+54    1.16e+54    1.16e+54
Cbe:      1.23e-11    1.81e-10    1.01e-06    1.01e-06    1.01e-06
Cbc:      9.97e-13    1.05e-12    5.96e-10    5.96e-10    5.96e-10
Cjs:      0.00e+00    0.00e+00    0.00e+00    0.00e+00    0.00e+00
BetaAC:   1.91e+00    4.59e+02    4.42e+01    4.42e+01    4.42e+01
Cbx:      6.13e-13    6.45e-13    0.00e+00    0.00e+00    0.00e+00
Ft:       1.99e-02    2.68e+08    1.60e+06    1.60e+06    1.60e+06

Name:       q1
Model:    2n2219a
Ib:       1.10e-04
Ic:       2.00e-02
Vbe:      7.25e-01
Vbc:     -2.15e+00
Vce:      2.88e+00
BetaDC:   1.82e+02
Gm:       7.27e-01
Rpi:      2.50e+02
Rx:       1.00e+01
Ro:       3.81e+03
Cbe:      3.39e-10
Cbc:      4.61e-12
Cjs:      0.00e+00
BetaAC:   1.82e+02
Cbx:      0.00e+00
Ft:       3.37e+08

                        --- MOSFET Transistors ---
Name:        m:u3:6      m:u3:5      m:u3:4      m:u3:3      m:u3:2
Model:       u3:nox      u3:pox      u3:nix      u3:nix      u3:pix
Id:          3.22e-04   -2.97e-04    1.06e-11    1.06e-11   -5.00e-05
Vgs:         5.12e-01   -5.24e-01    7.96e-01    7.96e-01   -1.08e+00
Vds:         5.00e-01   -4.50e+00    5.30e+00    5.30e+00   -1.28e+00
Vbs:         0.00e+00    0.00e+00    0.00e+00    0.00e+00    0.00e+00
Vth:         3.28e-01   -3.28e-01    1.00e+00    1.00e+00   -1.00e+00
Vdsat:       1.84e-01   -1.96e-01    0.00e+00    0.00e+00   -7.53e-02
Gm:          3.51e-03    3.02e-03    0.00e+00    0.00e+00    1.33e-03
Gds:         3.24e-06    3.11e-06    0.00e+00    0.00e+00    5.06e-07
Gmb:         0.00e+00    0.00e+00    0.00e+00    0.00e+00    0.00e+00
Cbd:         0.00e+00    0.00e+00    0.00e+00    0.00e+00    0.00e+00
Cbs:         0.00e+00    0.00e+00    0.00e+00    0.00e+00    0.00e+00
Cgsov:       0.00e+00    0.00e+00    0.00e+00    0.00e+00    0.00e+00
Cgdov:       0.00e+00    0.00e+00    0.00e+00    0.00e+00    0.00e+00
Cgbov:       0.00e+00    0.00e+00    0.00e+00    0.00e+00    0.00e+00
Cgs:         4.37e-13    3.38e-13    1.28e-14    1.28e-14    4.01e-14
Cgd:         0.00e+00    0.00e+00    0.00e+00    0.00e+00    0.00e+00
Cgb:         0.00e+00    0.00e+00    2.04e-14    2.04e-14    0.00e+00

Name:        m:u3:1      m:u8:6      m:u8:5      m:u8:4      m:u8:3
Model:       u3:pix      u8:nox      u8:pox      u8:nix      u8:nix
Id:         -5.00e-05    2.83e-04   -3.33e-04    1.06e-11    1.06e-11
Vgs:        -1.08e+00    5.00e-01   -5.36e-01    7.96e-01    7.96e-01
Vds:        -1.28e+00    1.00e+00   -4.00e+00    5.30e+00    5.30e+00
Vbs:         0.00e+00    0.00e+00    0.00e+00    0.00e+00    0.00e+00
Vth:        -1.00e+00    3.28e-01   -3.28e-01    1.00e+00    1.00e+00
Vdsat:      -7.53e-02    1.72e-01   -2.08e-01    0.00e+00    0.00e+00
Gm:          1.33e-03    3.29e-03    3.19e-03    0.00e+00    0.00e+00
Gds:         5.06e-07    2.86e-06    3.47e-06    0.00e+00    0.00e+00
Gmb:         0.00e+00    0.00e+00    0.00e+00    0.00e+00    0.00e+00
Cbd:         0.00e+00    0.00e+00    0.00e+00    0.00e+00    0.00e+00
Cbs:         0.00e+00    0.00e+00    0.00e+00    0.00e+00    0.00e+00
Cgsov:       0.00e+00    0.00e+00    0.00e+00    0.00e+00    0.00e+00
Cgdov:       0.00e+00    0.00e+00    0.00e+00    0.00e+00    0.00e+00
Cgbov:       0.00e+00    0.00e+00    0.00e+00    0.00e+00    0.00e+00
Cgs:         4.01e-14    4.37e-13    3.38e-13    1.28e-14    1.28e-14
Cgd:         0.00e+00    0.00e+00    0.00e+00    0.00e+00    0.00e+00
Cgb:         0.00e+00    0.00e+00    0.00e+00    2.04e-14    2.04e-14

Name:        m:u8:2      m:u8:1      m:u7:6      m:u7:5      m:u7:4
Model:       u8:pix      u8:pix      u7:nox      u7:pox      u7:nix
Id:         -5.00e-05   -5.00e-05    2.70e-04   -3.45e-04    5.00e-05
Vgs:        -1.08e+00   -1.08e+00    4.95e-01   -5.41e-01    1.07e+00
Vds:        -1.28e+00   -1.28e+00    1.50e+00   -3.50e+00    4.27e+00
Vbs:         0.00e+00    0.00e+00    0.00e+00    0.00e+00    0.00e+00
Vth:        -1.00e+00   -1.00e+00    3.28e-01   -3.28e-01    1.00e+00
Vdsat:      -7.53e-02   -7.53e-02    1.67e-01   -2.13e-01    7.42e-02
Gm:          1.33e-03    1.33e-03    3.23e-03    3.24e-03    1.35e-03
Gds:         5.06e-07    5.06e-07    2.74e-06    3.57e-06    5.22e-07
Gmb:         0.00e+00    0.00e+00    0.00e+00    0.00e+00    0.00e+00
Cbd:         0.00e+00    0.00e+00    0.00e+00    0.00e+00    0.00e+00
Cbs:         0.00e+00    0.00e+00    0.00e+00    0.00e+00    0.00e+00
Cgsov:       0.00e+00    0.00e+00    0.00e+00    0.00e+00    0.00e+00
Cgdov:       0.00e+00    0.00e+00    0.00e+00    0.00e+00    0.00e+00
Cgbov:       0.00e+00    0.00e+00    0.00e+00    0.00e+00    0.00e+00
Cgs:         4.01e-14    4.01e-14    4.37e-13    3.38e-13    4.01e-14
Cgd:         0.00e+00    0.00e+00    0.00e+00    0.00e+00    0.00e+00
Cgb:         0.00e+00    0.00e+00    0.00e+00    0.00e+00    0.00e+00

Name:        m:u7:3      m:u7:2      m:u7:1      m:u6:6      m:u6:5
Model:       u7:nix      u7:pix      u7:pix      u6:nox      u6:pox
Id:          5.00e-05   -5.00e-05   -5.00e-05    2.99e-04   -3.17e-04
Vgs:         1.07e+00   -1.07e+00   -1.07e+00    5.05e-01   -5.31e-01
Vds:         4.27e+00   -2.27e+00   -2.27e+00    8.54e-01   -4.15e+00
Vbs:         0.00e+00    0.00e+00    0.00e+00    0.00e+00    0.00e+00
Vth:         1.00e+00   -1.00e+00   -1.00e+00    3.28e-01   -3.28e-01
Vdsat:       7.42e-02   -7.49e-02   -7.49e-02    1.77e-01   -2.03e-01
Gm:          1.35e-03    1.33e-03    1.33e-03    3.39e-03    3.12e-03
Gds:         5.22e-07    5.12e-07    5.12e-07    3.02e-06    3.31e-06
Gmb:         0.00e+00    0.00e+00    0.00e+00    0.00e+00    0.00e+00
Cbd:         0.00e+00    0.00e+00    0.00e+00    0.00e+00    0.00e+00
Cbs:         0.00e+00    0.00e+00    0.00e+00    0.00e+00    0.00e+00
Cgsov:       0.00e+00    0.00e+00    0.00e+00    0.00e+00    0.00e+00
Cgdov:       0.00e+00    0.00e+00    0.00e+00    0.00e+00    0.00e+00
Cgbov:       0.00e+00    0.00e+00    0.00e+00    0.00e+00    0.00e+00
Cgs:         4.01e-14    4.01e-14    4.01e-14    4.37e-13    3.38e-13
Cgd:         0.00e+00    0.00e+00    0.00e+00    0.00e+00    0.00e+00
Cgb:         0.00e+00    0.00e+00    0.00e+00    0.00e+00    0.00e+00

Name:        m:u6:4      m:u6:3      m:u6:2      m:u6:1      m:u5:6
Model:       u6:nix      u6:nix      u6:pix      u6:pix      u5:nox
Id:          5.00e-05    5.00e-05   -5.00e-05   -5.00e-05    2.96e-04
Vgs:         1.07e+00    1.07e+00   -1.08e+00   -1.08e+00    5.03e-01
Vds:         4.77e+00    4.77e+00   -1.78e+00   -1.78e+00    1.00e+00
Vbs:         0.00e+00    0.00e+00    0.00e+00    0.00e+00    0.00e+00
Vth:         1.00e+00    1.00e+00   -1.00e+00   -1.00e+00    3.28e-01
Vdsat:       7.39e-02    7.39e-02   -7.51e-02   -7.51e-02    1.75e-01
Gm:          1.35e-03    1.35e-03    1.33e-03    1.33e-03    3.37e-03
Gds:         5.25e-07    5.25e-07    5.09e-07    5.09e-07    2.99e-06
Gmb:         0.00e+00    0.00e+00    0.00e+00    0.00e+00    0.00e+00
Cbd:         0.00e+00    0.00e+00    0.00e+00    0.00e+00    0.00e+00
Cbs:         0.00e+00    0.00e+00    0.00e+00    0.00e+00    0.00e+00
Cgsov:       0.00e+00    0.00e+00    0.00e+00    0.00e+00    0.00e+00
Cgdov:       0.00e+00    0.00e+00    0.00e+00    0.00e+00    0.00e+00
Cgbov:       0.00e+00    0.00e+00    0.00e+00    0.00e+00    0.00e+00
Cgs:         4.01e-14    4.01e-14    4.01e-14    4.01e-14    4.37e-13
Cgd:         0.00e+00    0.00e+00    0.00e+00    0.00e+00    0.00e+00
Cgb:         0.00e+00    0.00e+00    0.00e+00    0.00e+00    0.00e+00

Name:        m:u5:5      m:u5:4      m:u5:3      m:u5:2      m:u5:1
Model:       u5:pox      u5:nix      u5:nix      u5:pix      u5:pix
Id:         -3.21e-04    1.32e-05    1.32e-05   -5.00e-05   -5.00e-05
Vgs:        -5.33e-01    1.04e+00    1.04e+00   -1.08e+00   -1.08e+00
Vds:        -4.00e+00    5.21e+00    5.21e+00   -1.53e+00   -1.53e+00
Vbs:         0.00e+00    0.00e+00    0.00e+00    0.00e+00    0.00e+00
Vth:        -3.28e-01    1.00e+00    1.00e+00   -1.00e+00   -1.00e+00
Vdsat:      -2.05e-01    3.80e-02    3.80e-02   -7.52e-02   -7.52e-02
Gm:          3.13e-03    6.98e-04    6.98e-04    1.33e-03    1.33e-03
