Circuit: * C:\Users\monka\Desktop\Projects\linear_psu\psu01_spiDAC_spiADC\LTSpice\PSU_current_sense_low_side_concept_design\PSU1.17_LowSide_CurrentLimit_optoUIreg.asc

Instance "m:u3:6": Length shorter than recommended for a level 2 MOSFET.
Instance "m:u3:5": Length shorter than recommended for a level 2 MOSFET.
Instance "m:u3:4": Length shorter than recommended for a level 2 MOSFET.
Instance "m:u3:3": Length shorter than recommended for a level 2 MOSFET.
Instance "m:u3:2": Length shorter than recommended for a level 2 MOSFET.
Instance "m:u3:1": Length shorter than recommended for a level 2 MOSFET.
Instance "m:u8:6": Length shorter than recommended for a level 2 MOSFET.
Instance "m:u8:5": Length shorter than recommended for a level 2 MOSFET.
Instance "m:u8:4": Length shorter than recommended for a level 2 MOSFET.
Instance "m:u8:3": Length shorter than recommended for a level 2 MOSFET.
Instance "m:u8:2": Length shorter than recommended for a level 2 MOSFET.
Instance "m:u8:1": Length shorter than recommended for a level 2 MOSFET.
Instance "m:u7:6": Length shorter than recommended for a level 2 MOSFET.
Instance "m:u7:5": Length shorter than recommended for a level 2 MOSFET.
Instance "m:u7:4": Length shorter than recommended for a level 2 MOSFET.
Instance "m:u7:3": Length shorter than recommended for a level 2 MOSFET.
Instance "m:u7:2": Length shorter than recommended for a level 2 MOSFET.
Instance "m:u7:1": Length shorter than recommended for a level 2 MOSFET.
Instance "m:u6:6": Length shorter than recommended for a level 2 MOSFET.
Instance "m:u6:5": Length shorter than recommended for a level 2 MOSFET.
Instance "m:u6:4": Length shorter than recommended for a level 2 MOSFET.
Instance "m:u6:3": Length shorter than recommended for a level 2 MOSFET.
Instance "m:u6:2": Length shorter than recommended for a level 2 MOSFET.
Instance "m:u6:1": Length shorter than recommended for a level 2 MOSFET.
Instance "m:u5:6": Length shorter than recommended for a level 2 MOSFET.
Instance "m:u5:5": Length shorter than recommended for a level 2 MOSFET.
Instance "m:u5:4": Length shorter than recommended for a level 2 MOSFET.
Instance "m:u5:3": Length shorter than recommended for a level 2 MOSFET.
Instance "m:u5:2": Length shorter than recommended for a level 2 MOSFET.
Instance "m:u5:1": Length shorter than recommended for a level 2 MOSFET.
Instance "m:u4:6": Length shorter than recommended for a level 2 MOSFET.
Instance "m:u4:5": Length shorter than recommended for a level 2 MOSFET.
Instance "m:u4:4": Length shorter than recommended for a level 2 MOSFET.
Instance "m:u4:3": Length shorter than recommended for a level 2 MOSFET.
Instance "m:u4:2": Length shorter than recommended for a level 2 MOSFET.
Instance "m:u4:1": Length shorter than recommended for a level 2 MOSFET.
Instance "m:u2:6": Length shorter than recommended for a level 2 MOSFET.
Instance "m:u2:5": Length shorter than recommended for a level 2 MOSFET.
Instance "m:u2:4": Length shorter than recommended for a level 2 MOSFET.
Instance "m:u2:3": Length shorter than recommended for a level 2 MOSFET.
Instance "m:u2:2": Length shorter than recommended for a level 2 MOSFET.
Instance "m:u2:1": Length shorter than recommended for a level 2 MOSFET.
Instance "m:u1:6": Length shorter than recommended for a level 2 MOSFET.
Instance "m:u1:5": Length shorter than recommended for a level 2 MOSFET.
Instance "m:u1:4": Length shorter than recommended for a level 2 MOSFET.
Instance "m:u1:3": Length shorter than recommended for a level 2 MOSFET.
Instance "m:u1:2": Length shorter than recommended for a level 2 MOSFET.
Instance "m:u1:1": Length shorter than recommended for a level 2 MOSFET.
Direct Newton iteration failed to find .op point.  (Use ".option noopiter" to skip.)
Starting Gmin stepping
Gmin = 10
Gmin = 1.07374
Gmin = 0.115292
Gmin = 0.0123794
Gmin = 0.00132923
vernier = 0.5
vernier = 0.25
vernier = 0.125
vernier = 0.0625
Gmin = 0.00100083
vernier = 0.03125
vernier = 0.015625
vernier = 0.0078125
vernier = 0.00390625
vernier = 0.00195313
Gmin = 0.00100083
vernier = 0.000976563
vernier = 0.000488281
Gmin = 0
Gmin stepping failed

Starting source stepping with srcstepmethod=0
Source Step = 3.0303%
Source Step = 21.2595%
Source Step = 21.733%
Source Step = 22.2064%
Source Step = 22.6799%
Source Step = 23.1534%
Source Step = 23.6269%
vernier = 0.0234375
Source Step = 24.3371%
Source Step = 25.0473%
Source Step = 25.7576%
Source Step = 26.4678%
Source Step = 27.178%
vernier = 0.0351563
Source Step = 28.2079%
Source Step = 28.2611%
Source Step = 28.3277%
Source Step = 28.3943%
Source Step = 28.4609%
Source Step = 28.5275%
vernier = 0.0032959
Source Step = 28.6074%
Source Step = 28.7072%
Source Step = 28.8071%
Source Step = 28.907%
Source Step = 29.0069%
vernier = 0.00494385
Source Step = 29.1217%
Source Step = 29.2715%
Source Step = 29.4213%
Source Step = 29.5712%
Source Step = 29.721%
vernier = 0.00741577
Source Step = 29.8858%
Source Step = 30.1105%
Source Step = 30.3352%
Source Step = 30.5599%
Source Step = 30.7847%
vernier = 0.0111237
Source Step = 31.0206%
Source Step = 31.3577%
Source Step = 31.6948%
Source Step = 32.0319%
Source Step = 32.3689%
Source Step = 32.706%
vernier = 0.0166855
Source Step = 33.2116%
Source Step = 33.7173%
Source Step = 34.2229%
Source Step = 34.7285%
Source Step = 35.2341%
vernier = 0.0250282
Source Step = 35.9673%
Source Step = 36.7257%
Source Step = 37.4841%
Source Step = 38.2426%
Source Step = 39.001%
vernier = 0.0375423
Source Step = 40.0628%
Source Step = 41.2004%
Source Step = 42.3381%
Source Step = 43.4757%
Source Step = 44.6134%
vernier = 0.0563135
Source Step = 46.1492%
Source Step = 47.8557%
Source Step = 49.5621%
Source Step = 51.2686%
Source Step = 52.9751%
vernier = 0.0844703
Source Step = 55.1935%
Source Step = 57.7532%
Source Step = 60.3129%
Source Step = 62.8726%
Source Step = 65.4323%
vernier = 0.126705
Source Step = 68.6319%
Source Step = 72.4715%
Source Step = 76.3111%
Source Step = 80.1506%
Source Step = 83.9902%
vernier = 0.190058
Source Step = 88.5976%
Source Step = 94.357%
Source Step = 100%
Source Step = 100%
Source stepping succeeded in finding the operating point.

Semiconductor Device Operating Points:
                        --- Diodes ---
Name:    d:u10:1       d3          d2        d:u9:1      d:u3:4
Model:   u10:ld      nscw100     nscw100      u9:ld       u3:dx
Id:      9.60e-03    1.56e-11    7.13e-03    3.83e-12   -2.56e-12
Vd:      1.07e+00    2.31e-04    3.28e+00    5.08e-01   -2.55e+00
Req:     2.69e+00    1.47e+07    3.49e+01    7.72e+09    1.00e+12
CAP:     4.00e-11    4.20e-11    2.21e-10    2.56e-11    0.00e+00

Name:    d:u3:3      d:u3:2      d:u3:1      d:u8:4      d:u8:3
Model:    u3:dx       u3:dx       u3:dx       u8:dx       u8:dx
Id:     -2.46e-12    1.00e-04   -3.58e-12   -2.51e-12   -2.51e-12
Vd:     -2.45e+00    5.96e-01   -3.57e+00   -2.50e+00   -2.50e+00
Req:     1.00e+12    2.59e+02    1.00e+12    1.00e+12    1.00e+12
CAP:     0.00e+00    0.00e+00    0.00e+00    0.00e+00    0.00e+00

Name:    d:u8:2      d:u8:1      d:u7:4      d:u7:3      d:u7:2
Model:    u8:dx       u8:dx       u7:dx       u7:dx       u7:dx
Id:      1.00e-04   -3.58e-12   -2.51e-12   -2.51e-12    1.00e-04
Vd:      5.96e-01   -3.57e+00   -2.50e+00   -2.50e+00    5.96e-01
Req:     2.59e+02    1.00e+12    1.00e+12    1.00e+12    2.59e+02
CAP:     0.00e+00    0.00e+00    0.00e+00    0.00e+00    0.00e+00

Name:    d:u7:1      d:u6:4      d:u6:3      d:u6:2      d:u6:1
Model:    u7:dx       u6:dx       u6:dx       u6:dx       u6:dx
Id:     -3.08e-12   -5.56e-12    1.50e-05    6.24e-08   -3.10e-12
Vd:     -3.07e+00   -5.55e+00    5.47e-01    4.05e-01   -3.09e+00
Req:     1.00e+12    1.00e+12    1.72e+03    4.14e+05    1.00e+12
CAP:     0.00e+00    0.00e+00    0.00e+00    0.00e+00    0.00e+00

Name:    d:u5:4      d:u5:3      d:u5:2      d:u5:1      d:u4:4
Model:    u5:dx       u5:dx       u5:dx       u5:dx       u4:dx
Id:     -2.51e-12   -2.51e-12    1.00e-04   -3.36e-12   -2.51e-12
Vd:     -2.50e+00   -2.50e+00    5.96e-01   -3.35e+00   -2.50e+00
Req:     1.00e+12    1.00e+12    2.59e+02    1.00e+12    1.00e+12
CAP:     0.00e+00    0.00e+00    0.00e+00    0.00e+00    0.00e+00

Name:    d:u4:3      d:u4:2      d:u4:1        d5          d1
Model:    u4:dx       u4:dx       u4:dx         d           d
Id:     -2.51e-12    1.00e-04   -3.13e-12    3.71e-13    5.14e-03
Vd:     -2.50e+00    5.96e-01   -3.12e+00    8.74e-02    6.97e-01
Req:     1.00e+12    2.59e+02    1.00e+12    8.09e+10    5.03e+00
CAP:     0.00e+00    0.00e+00    0.00e+00    0.00e+00    0.00e+00

Name:    d:u2:4      d:u2:3      d:u2:2      d:u2:1      d:u1:4
Model:    u2:dx       u2:dx       u2:dx       u2:dx       u1:dx
Id:     -2.51e-12   -2.51e-12    1.00e-04   -3.13e-12   -5.47e-12
Vd:     -2.50e+00   -2.50e+00    5.96e-01   -3.12e+00   -5.46e+00
Req:     1.00e+12    1.00e+12    2.59e+02    1.00e+12    1.00e+12
CAP:     0.00e+00    0.00e+00    0.00e+00    0.00e+00    0.00e+00

Name:    d:u1:3      d:u1:2      d:u1:1
Model:    u1:dx       u1:dx       u1:dx
Id:      4.91e-07    1.00e-04   -3.14e-12
Vd:      4.58e-01    5.96e-01   -3.13e+00
Req:     5.27e+04    2.59e+02    1.00e+12
CAP:     0.00e+00    0.00e+00    0.00e+00

                        --- Bipolar Transistors ---
Name:     q:u10:1     q:u9:1        q8          q7          q9
Model:    u10:np       u9:np      bc557c      bc557c      bc547c
Ib:       4.42e-05    1.77e-14   -1.94e-05   -2.00e-05    1.64e-05
Ic:       7.08e-03    1.56e-11   -9.65e-03   -8.17e-03    8.21e-03
Vbe:      8.27e-01    2.83e-01   -6.80e-01   -6.80e-01    6.76e-01
Vbc:      6.78e-01   -4.72e+00    5.06e+00    0.00e+00   -7.90e+00
Vce:      1.49e-01    5.00e+00   -5.74e+00   -6.80e-01    8.57e+00
BetaDC:   1.60e+02    8.80e+02    4.98e+02    4.08e+02    4.99e+02
Gm:       2.58e-01    2.28e-10    3.35e-01    2.82e-01    2.99e-01
Rpi:      2.58e+03    8.63e+09    1.36e+03    1.31e+03    1.59e+03
Rx:       0.00e+00    0.00e+00    1.00e+00    1.00e+00    1.00e+00
Ro:       8.26e+02    2.45e+13    2.95e+03    2.87e+03    7.36e+03
Cbe:      1.23e-11    8.19e-12    2.12e-10    1.87e-10    1.76e-10
Cbc:      3.04e-11    9.86e-12    1.75e-12    4.92e-12    9.77e-13
Cjs:      7.00e-12    7.00e-12    0.00e+00    0.00e+00    0.00e+00
BetaAC:   6.65e+02    1.97e+00    4.54e+02    3.71e+02    4.76e+02
Cbx:      0.00e+00    0.00e+00    1.03e-12    2.91e-12    6.01e-13
Ft:       9.61e+08    1.73e+00    2.48e+08    2.31e+08    2.68e+08

Name:       q5          q6          q3          q4          q2
Model:    bc547c      bc547c      2n3055      2n3055      2n3055
Ib:       2.14e-05   -3.78e-12    2.60e-03    2.60e-03    2.60e-03
Ic:       9.60e-03    3.83e-12    1.63e-01    1.63e-01    1.63e-01
Vbe:      6.83e-01    3.80e-08    4.13e-01    4.13e-01    4.13e-01
Vbc:     -2.49e+00   -3.75e+00   -6.44e+00   -6.44e+00   -6.44e+00
Vce:      3.17e+00    3.75e+00    6.86e+00    6.86e+00    6.86e+00
BetaDC:   4.48e+02   -1.01e+00    6.27e+01    6.27e+01    6.27e+01
Gm:       3.46e-01    1.92e-12    5.54e+00    5.54e+00    5.54e+00
Rpi:      1.22e+03    9.36e+11    9.93e+00    9.93e+00    9.93e+00
Rx:       1.00e+00    1.00e+00    8.10e-01    8.10e-01    8.10e-01
Ro:       5.73e+03    1.13e+15    0.00e+00    0.00e+00    0.00e+00
Cbe:      2.03e-10    1.23e-11    5.52e-07    5.52e-07    5.52e-07
Cbc:      1.33e-12    1.19e-12    4.74e-10    4.74e-10    4.74e-10
Cjs:      0.00e+00    0.00e+00    0.00e+00    0.00e+00    0.00e+00
BetaAC:   4.22e+02    1.79e+00    5.50e+01    5.50e+01    5.50e+01
Cbx:      8.17e-13    7.33e-13    0.00e+00    0.00e+00    0.00e+00
Ft:       2.68e+08    1.78e-02    1.60e+06    1.60e+06    1.60e+06

Name:       q1
Model:    2n2219a
Ib:       5.16e-05
Ic:       9.64e-03
Vbe:      7.04e-01
Vbc:     -5.74e+00
Vce:      6.44e+00
BetaDC:   1.87e+02
Gm:       3.62e-01
Rpi:      5.39e+02
Rx:       1.00e+01
Ro:       8.27e+03
Cbe:      1.87e-10
Cbc:      3.50e-12
Cjs:      0.00e+00
BetaAC:   1.95e+02
Cbx:      0.00e+00
Ft:       3.02e+08

                        --- MOSFET Transistors ---
Name:        m:u3:6      m:u3:5      m:u3:4      m:u3:3      m:u3:2
Model:       u3:nox      u3:pox      u3:nix      u3:nix      u3:pix
Id:          1.95e-04   -1.73e-04    1.06e-11    1.06e-11   -5.00e-05
Vgs:         5.59e-01   -4.78e-01    3.46e-01    3.46e-01   -1.08e+00
Vds:         5.00e-02   -4.95e+00    5.30e+00    5.30e+00   -8.25e-01
Vbs:         0.00e+00    0.00e+00    0.00e+00    0.00e+00    0.00e+00
Vth:         3.28e-01   -3.28e-01    1.00e+00    1.00e+00   -1.00e+00
Vdsat:       2.31e-01   -1.50e-01    0.00e+00    0.00e+00   -7.55e-02
Gm:          9.50e-04    2.31e-03    0.00e+00    0.00e+00    1.32e-03
Gds:         3.43e-03    1.82e-06    0.00e+00    0.00e+00    5.04e-07
Gmb:         0.00e+00    0.00e+00    0.00e+00    0.00e+00    0.00e+00
Cbd:         0.00e+00    0.00e+00    0.00e+00    0.00e+00    0.00e+00
Cbs:         0.00e+00    0.00e+00    0.00e+00    0.00e+00    0.00e+00
Cgsov:       0.00e+00    0.00e+00    0.00e+00    0.00e+00    0.00e+00
Cgdov:       0.00e+00    0.00e+00    0.00e+00    0.00e+00    0.00e+00
Cgbov:       0.00e+00    0.00e+00    0.00e+00    0.00e+00    0.00e+00
Cgs:         3.53e-13    3.38e-13    0.00e+00    0.00e+00    4.01e-14
Cgd:         3.00e-13    0.00e+00    0.00e+00    0.00e+00    0.00e+00
Cgb:         0.00e+00    0.00e+00    6.01e-14    6.01e-14    0.00e+00

Name:        m:u3:1      m:u8:6      m:u8:5      m:u8:4      m:u8:3
Model:       u3:pix      u8:nox      u8:pox      u8:nix      u8:nix
Id:         -5.00e-05    3.06e-04   -3.11e-04    1.06e-11    1.06e-11
Vgs:        -1.08e+00    5.07e-01   -5.29e-01    3.46e-01    3.46e-01
Vds:        -8.25e-01    5.00e-01   -4.50e+00    5.30e+00    5.30e+00
Vbs:         0.00e+00    0.00e+00    0.00e+00    0.00e+00    0.00e+00
Vth:        -1.00e+00    3.28e-01   -3.28e-01    1.00e+00    1.00e+00
Vdsat:      -7.55e-02    1.79e-01   -2.01e-01    0.00e+00    0.00e+00
Gm:          1.32e-03    3.42e-03    3.09e-03    0.00e+00    0.00e+00
Gds:         5.04e-07    3.08e-06    3.26e-06    0.00e+00    0.00e+00
Gmb:         0.00e+00    0.00e+00    0.00e+00    0.00e+00    0.00e+00
Cbd:         0.00e+00    0.00e+00    0.00e+00    0.00e+00    0.00e+00
Cbs:         0.00e+00    0.00e+00    0.00e+00    0.00e+00    0.00e+00
Cgsov:       0.00e+00    0.00e+00    0.00e+00    0.00e+00    0.00e+00
Cgdov:       0.00e+00    0.00e+00    0.00e+00    0.00e+00    0.00e+00
Cgbov:       0.00e+00    0.00e+00    0.00e+00    0.00e+00    0.00e+00
Cgs:         4.01e-14    4.37e-13    3.38e-13    0.00e+00    0.00e+00
Cgd:         0.00e+00    0.00e+00    0.00e+00    0.00e+00    0.00e+00
Cgb:         0.00e+00    0.00e+00    0.00e+00    6.01e-14    6.01e-14

Name:        m:u8:2      m:u8:1      m:u7:6      m:u7:5      m:u7:4
Model:       u8:pix      u8:pix      u7:nox      u7:pox      u7:nix
Id:         -5.00e-05   -5.00e-05    2.94e-04   -3.22e-04    1.06e-11
Vgs:        -1.08e+00   -1.08e+00    5.04e-01   -5.33e-01    8.46e-01
Vds:        -8.25e-01   -8.25e-01    5.50e-01   -4.45e+00    5.30e+00
Vbs:         0.00e+00    0.00e+00    0.00e+00    0.00e+00    0.00e+00
Vth:        -1.00e+00   -1.00e+00    3.28e-01   -3.28e-01    1.00e+00
Vdsat:      -7.55e-02   -7.55e-02    1.76e-01   -2.05e-01    0.00e+00
Gm:          1.32e-03    1.32e-03    3.35e-03    3.15e-03    0.00e+00
Gds:         5.04e-07    5.04e-07    2.96e-06    3.37e-06    0.00e+00
Gmb:         0.00e+00    0.00e+00    0.00e+00    0.00e+00    0.00e+00
Cbd:         0.00e+00    0.00e+00    0.00e+00    0.00e+00    0.00e+00
Cbs:         0.00e+00    0.00e+00    0.00e+00    0.00e+00    0.00e+00
Cgsov:       0.00e+00    0.00e+00    0.00e+00    0.00e+00    0.00e+00
Cgdov:       0.00e+00    0.00e+00    0.00e+00    0.00e+00    0.00e+00
Cgbov:       0.00e+00    0.00e+00    0.00e+00    0.00e+00    0.00e+00
Cgs:         4.01e-14    4.01e-14    4.37e-13    3.38e-13    1.95e-14
Cgd:         0.00e+00    0.00e+00    0.00e+00    0.00e+00    0.00e+00
Cgb:         0.00e+00    0.00e+00    0.00e+00    0.00e+00    1.54e-14

Name:        m:u7:3      m:u7:2      m:u7:1      m:u6:6      m:u6:5
Model:       u7:nix      u7:pix      u7:pix      u6:nox      u6:pox
Id:          1.06e-11   -5.00e-05   -5.00e-05    1.38e-11   -1.00e-11
Vgs:         8.46e-01   -1.08e+00   -1.08e+00    3.55e+00    2.52e+00
Vds:         5.30e+00   -1.33e+00   -1.33e+00    2.25e-10   -5.00e+00
Vbs:         0.00e+00    0.00e+00    0.00e+00    0.00e+00    0.00e+00
Vth:         1.00e+00   -1.00e+00   -1.00e+00    3.28e-01   -3.28e-01
Vdsat:       0.00e+00   -7.53e-02   -7.53e-02    3.22e+00   -0.00e+00
Gm:          0.00e+00    1.33e-03    1.33e-03    4.28e-12    0.00e+00
Gds:         0.00e+00    5.07e-07    5.07e-07    6.13e-02    0.00e+00
Gmb:         0.00e+00    0.00e+00    0.00e+00    0.00e+00    0.00e+00
Cbd:         0.00e+00    0.00e+00    0.00e+00    0.00e+00    0.00e+00
Cbs:         0.00e+00    0.00e+00    0.00e+00    0.00e+00    0.00e+00
Cgsov:       0.00e+00    0.00e+00    0.00e+00    0.00e+00    0.00e+00
Cgdov:       0.00e+00    0.00e+00    0.00e+00    0.00e+00    0.00e+00
Cgbov:       0.00e+00    0.00e+00    0.00e+00    0.00e+00    0.00e+00
Cgs:         1.95e-14    4.01e-14    4.01e-14    3.28e-13    0.00e+00
Cgd:         0.00e+00    0.00e+00    0.00e+00    3.28e-13    0.00e+00
Cgb:         1.54e-14    0.00e+00    0.00e+00    0.00e+00    5.08e-13

Name:        m:u6:4      m:u6:3      m:u6:2      m:u6:1      m:u5:6
Model:       u6:nix      u6:nix      u6:pix      u6:pix      u5:nox
Id:          9.99e-05    1.02e-11   -3.22e-12   -1.00e-04    2.97e-04
Vgs:         1.10e+00    6.05e-01   -6.07e-01   -1.11e+00    5.04e-01
Vds:         4.50e+00    5.10e+00   -1.61e+00   -1.01e+00    5.00e-01
Vbs:         0.00e+00    0.00e+00    0.00e+00    0.00e+00    0.00e+00
Vth:         1.00e+00    1.00e+00   -1.00e+00   -1.00e+00    3.28e-01
Vdsat:       1.05e-01    0.00e+00   -0.00e+00   -1.07e-01    1.76e-01
Gm:          1.91e-03    0.00e+00    0.00e+00    1.88e-03    3.37e-03
Gds:         1.05e-06    0.00e+00    0.00e+00    1.01e-06    2.98e-06
Gmb:         0.00e+00    0.00e+00    0.00e+00    0.00e+00    0.00e+00
Cbd:         0.00e+00    0.00e+00    0.00e+00    0.00e+00    0.00e+00
Cbs:         0.00e+00    0.00e+00    0.00e+00    0.00e+00    0.00e+00
Cgsov:       0.00e+00    0.00e+00    0.00e+00    0.00e+00    0.00e+00
Cgdov:       0.00e+00    0.00e+00    0.00e+00    0.00e+00    0.00e+00
Cgbov:       0.00e+00    0.00e+00    0.00e+00    0.00e+00    0.00e+00
Cgs:         4.01e-14    0.00e+00    4.01e-14    4.01e-14    4.37e-13
Cgd:         0.00e+00    0.00e+00    0.00e+00    0.00e+00    0.00e+00
Cgb:         0.00e+00    3.96e-14    0.00e+00    0.00e+00    0.00e+00

Name:        m:u5:5      m:u5:4      m:u5:3      m:u5:2      m:u5:1
Model:       u5:pox      u5:nix      u5:nix      u5:pix      u5:pix
Id:         -3.19e-04    1.06e-11    1.06e-11   -5.00e-05   -5.00e-05
Vgs:        -5.32e-01    5.71e-01    5.71e-01   -1.08e+00   -1.08e+00
Vds:        -4.50e+00    5.30e+00    5.30e+00   -1.05e+00   -1.05e+00
Vbs:         0.00e+00    0.00e+00    0.00e+00    0.00e+00    0.00e+00
Vth:        -3.28e-01    1.00e+00    1.00e+00   -1.00e+00   -1.00e+00
Vdsat:      -2.04e-01    0.00e+00    0.00e+00   -7.54e-02   -7.54e-02
Gm:          3.14e-03    0.00e+00    0.00e+00    1.33e-03    1.33e-03
Gds:         3.35e-06    0.00e+00    0.00e+00    5.05e-07    5.05e-07
Gmb:         0.00e+00    0.00e+00    0.00e+00    0.00e+00    0.00e+00
Cbd:         0.00e+00    0.00e+00    0.00e+00    0.00e+00    0.00e+00
Cbs:         0.00e+00    0.00e+00    0.00e+00    0.00e+00    0.00e+00
Cgsov:       0.00e+00    0.00e+00    0.00e+00    0.00e+00    0.00e+00
Cgdov:       0.00e+00    0.00e+00    0.00e+00    0.00e+00    0.00e+00
Cgbov:       0.00e+00    0.00e+00    0.00e+00    0.00e+00    0.00e+00
Cgs:         3.38e-13    0.00e+00    0.00e+00    4.01e-14    4.01e-14
Cgd:         0.00e+00    0.00e+00    0.00e+00    0.00e+00    0.00e+00
